
T35A8 000:079 SEGGER J-Link V6.12a Log File (0001ms, 0037ms total)
T35A8 000:079 DLL Compiled: Dec  2 2016 16:44:26 (0001ms, 0037ms total)
T35A8 000:079 Logging started @ 2018-05-27 20:37 (0001ms, 0037ms total)
T35A8 000:080 JLINK_SetWarnOutHandler(...) (0000ms, 0037ms total)
T35A8 000:080 JLINK_OpenEx(...)
Firmware: J-Link ARM-OB STM32 compiled Aug 22 2012 19:52:04
Hardware: V7.00
S/N: 20090928
Feature(s): RDI,FlashDL,FlashBP,JFlash,GDBFullWEBSRV Webserver running on local port 19080 (0021ms, 0058ms total)
T35A8 000:080   returns O.K. (0021ms, 0058ms total)
T35A8 000:101 JLINK_SetErrorOutHandler(...) (0000ms, 0058ms total)
T35A8 000:101 JLINK_ExecCommand("ProjectFile = "I:\52ÍâÉè\nRF5_SDK_15.0\nRF5_SDK_15.0.0_a53641a\examples\ble_peripheral\ble_app_template\pca10040\s132\arm4\JLinkSettings.ini"", ...). C:\Program Files (x86)\SEGGER\JLink_V612a\JLinkDevices.xml evaluated successfully.  returns 0x00 (0092ms, 0150ms total)
T35A8 000:197 JLINK_ExecCommand("Device = nRF52832_xxAA", ...). Device "NRF52832_XXAA" selected.  returns 0x00 (0003ms, 0153ms total)
T35A8 000:200 JLINK_ExecCommand("DisableConnectionTimeout", ...).   returns 0x01 (0000ms, 0153ms total)
T35A8 000:200 JLINK_GetHardwareVersion()  returns 0x11170 (0000ms, 0153ms total)
T35A8 000:200 JLINK_GetDLLVersion()  returns 61201 (0000ms, 0153ms total)
T35A8 000:200 JLINK_GetFirmwareString(...) (0000ms, 0153ms total)
T35A8 000:205 JLINK_GetDLLVersion()  returns 61201 (0000ms, 0153ms total)
T35A8 000:205 JLINK_GetCompileDateTime() (0000ms, 0153ms total)
T35A8 000:207 JLINK_GetFirmwareString(...) (0000ms, 0153ms total)
T35A8 000:208 JLINK_GetHardwareVersion()  returns 0x11170 (0000ms, 0153ms total)
T35A8 000:220 JLINK_TIF_Select(JLINKARM_TIF_SWD)  returns 0x00 (0004ms, 0157ms total)
T35A8 000:224 JLINK_SetSpeed(5000) (0001ms, 0158ms total)
T35A8 000:225 JLINK_GetId() >0x108 TIF>Found SWD-DP with ID 0x2BA01477 >0x0D TIF> >0x28 TIF> >0x0D TIF> >0x28 TIF> >0x0D TIF> >0x28 TIF> >0x0D TIF> >0x28 TIF> >0x0D TIF> >0x28 TIF> >0x0D TIF> >0x28 TIF> >0x35 TIF> >0x35 TIF> >0x0D TIF> >0x28 TIF> >0x35 TIF> >0x35 TIF> >0x108 TIF>Found SWD-DP with ID 0x2BA01477 >0x0D TIF> >0x28 TIF> >0x0D TIF> >0x28 TIF> >0x0D TIF> >0x28 TIF> >0x0D TIF> >0x28 TIF> >0x35 TIF> >0x0D TIF> >0x28 TIF> >0x0D TIF> >0x28 TIF> >0x35 TIF> >0x35 TIF> >0x35 TIF>
AP-IDR: 0x24770011, Type: AHB-AP >0x0D TIF> >0x28 TIF> >0x0D TIF> >0x28 TIF> >0x0D TIF> >0x28 TIF> >0x35 TIF> >0x35 TIF> >0x0D TIF> >0x28 TIF> >0x35 TIF> >0x35 TIF>Found Cortex-M4 r0p1, Little endian. -- CPU_ReadMem(4 bytes @ 0xE000EDF0) -- CPU_ReadMem(4 bytes @ 0xE0002000)FPUnit: 6 code (BP) slots and 2 literal slots -- CPU_ReadMem(4 bytes @ 0xE000EDFC) -- CPU_ReadMem(4 bytes @ 0xE0001000) -- CPU_WriteMem(4 bytes @ 0xE0001000) -- CPU_ReadMem(4 bytes @ 0xE000ED88) -- CPU_WriteMem(4 bytes @ 0xE000ED88)
 -- CPU_ReadMem(4 bytes @ 0xE000ED88) -- CPU_WriteMem(4 bytes @ 0xE000ED88)CoreSight components:ROMTbl 0 @ E00FF000 -- CPU_ReadMem(16 bytes @ 0xE00FF000) -- CPU_ReadMem(16 bytes @ 0xE000EFF0) -- CPU_ReadMem(16 bytes @ 0xE000EFE0)ROMTbl 0 [0]: FFF0F000, CID: B105E00D, PID: 000BB00C SCS -- CPU_ReadMem(16 bytes @ 0xE0001FF0) -- CPU_ReadMem(16 bytes @ 0xE0001FE0)ROMTbl 0 [1]: FFF02000, CID: B105E00D, PID: 003BB002 DWT -- CPU_ReadMem(16 bytes @ 0xE0002FF0) -- CPU_ReadMem(16 bytes @ 0xE0002FE0)
ROMTbl 0 [2]: FFF03000, CID: B105E00D, PID: 002BB003 FPB -- CPU_ReadMem(16 bytes @ 0xE0000FF0) -- CPU_ReadMem(16 bytes @ 0xE0000FE0)ROMTbl 0 [3]: FFF01000, CID: B105E00D, PID: 003BB001 ITM -- CPU_ReadMem(16 bytes @ 0xE00FF010) -- CPU_ReadMem(16 bytes @ 0xE0040FF0) -- CPU_ReadMem(16 bytes @ 0xE0040FE0)ROMTbl 0 [4]: FFF41000, CID: B105900D, PID: 000BB9A1 TPIU -- CPU_ReadMem(16 bytes @ 0xE0041FF0) -- CPU_ReadMem(16 bytes @ 0xE0041FE0)ROMTbl 0 [5]: FFF42000, CID: B105900D, PID: 000BB925 ETM >0x35 TIF>
  returns 0x2BA01477 (0130ms, 0288ms total)
T35A8 000:355 JLINK_GetDLLVersion()  returns 61201 (0000ms, 0288ms total)
T35A8 000:355 JLINK_CORE_GetFound()  returns 0xE0000FF (0000ms, 0288ms total)
T35A8 000:355 JLINK_GetDebugInfo(0x100) -- Value=0xE00FF000  returns 0x00 (0000ms, 0288ms total)
T35A8 000:356 JLINK_GetDebugInfo(0x100) -- Value=0xE00FF000  returns 0x00 (0000ms, 0288ms total)
T35A8 000:356 JLINK_GetDebugInfo(0x101) -- Value=0xE0041000  returns 0x00 (0000ms, 0288ms total)
T35A8 000:356 JLINK_GetDebugInfo(0x102) -- Value=0x00000000  returns 0x00 (0000ms, 0288ms total)
T35A8 000:356 JLINK_GetDebugInfo(0x103) -- Value=0xE0040000  returns 0x00 (0000ms, 0288ms total)
T35A8 000:356 JLINK_GetDebugInfo(0x104) -- Value=0xE0000000  returns 0x00 (0000ms, 0288ms total)
T35A8 000:356 JLINK_GetDebugInfo(0x105) -- Value=0xE0001000  returns 0x00 (0000ms, 0288ms total)
T35A8 000:356 JLINK_GetDebugInfo(0x106) -- Value=0xE0002000  returns 0x00 (0000ms, 0288ms total)
T35A8 000:356 JLINK_GetDebugInfo(0x107) -- Value=0xE000E000  returns 0x00 (0000ms, 0288ms total)
T35A8 000:356 JLINK_GetDebugInfo(0x10C) -- Value=0xE000EDF0  returns 0x00 (0000ms, 0288ms total)
T35A8 000:356 JLINK_ReadMemU32(0xE000EF40, 0x0001 Items, ...) -- CPU is running -- CPU_ReadMem(4 bytes @ 0xE000EF40) - Data: 21 00 11 10  returns 0x01 (0001ms, 0289ms total)
T35A8 000:357 JLINK_ReadMemU32(0xE000EF44, 0x0001 Items, ...) -- CPU is running -- CPU_ReadMem(4 bytes @ 0xE000EF44) - Data: 11 00 00 11  returns 0x01 (0003ms, 0292ms total)
T35A8 000:360 JLINK_ReadMemU32(0xE000ED00, 0x0001 Items, ...) -- CPU is running -- CPU_ReadMem(4 bytes @ 0xE000ED00) - Data: 41 C2 0F 41  returns 0x01 (0001ms, 0293ms total)
T35A8 000:361 JLINK_SetResetType(JLINKARM_CM3_RESET_TYPE_NORMAL)  returns JLINKARM_CM3_RESET_TYPE_NORMAL (0000ms, 0293ms total)
T35A8 000:361 JLINK_Reset() -- CPU is running -- CPU_WriteMem(4 bytes @ 0xE000EDF0) -- CPU is running -- CPU_WriteMem(4 bytes @ 0xE000EDFC) >0x35 TIF> -- CPU is running -- CPU_WriteMem(4 bytes @ 0xE000ED0C) -- CPU is running -- CPU_ReadMem(4 bytes @ 0xE000EDF0) -- CPU is running -- CPU_ReadMem(4 bytes @ 0xE000EDF0) -- CPU is running -- CPU_WriteMem(4 bytes @ 0xE000EDF0) -- CPU is running -- CPU_WriteMem(4 bytes @ 0xE000EDFC) -- CPU is running -- CPU_ReadMem(4 bytes @ 0xE000EDF0)
 -- CPU_WriteMem(4 bytes @ 0xE0002000) -- CPU_ReadMem(4 bytes @ 0xE000EDFC) -- CPU_ReadMem(4 bytes @ 0xE0001000) (0029ms, 0322ms total)
T35A8 000:390 JLINK_Halt()  returns 0x00 (0000ms, 0322ms total)
T35A8 000:390 JLINK_IsHalted()  returns TRUE (0000ms, 0322ms total)
T35A8 000:390 JLINK_ReadMemU32(0xE000EDF0, 0x0001 Items, ...) -- CPU_ReadMem(4 bytes @ 0xE000EDF0) - Data: 03 00 03 00  returns 0x01 (0001ms, 0323ms total)
T35A8 000:391 JLINK_WriteU32(0xE000EDF0, 0xA05F0003) -- CPU_WriteMem(4 bytes @ 0xE000EDF0)  returns 0x00 (0001ms, 0324ms total)
T35A8 000:392 JLINK_WriteU32(0xE000EDFC, 0x01000000) -- CPU_WriteMem(4 bytes @ 0xE000EDFC)  returns 0x00 (0001ms, 0325ms total)
T35A8 000:403 JLINK_GetHWStatus(...)  returns 0x00 (0002ms, 0327ms total)
T35A8 000:410 JLINK_GetNumBPUnits(Type = 0xFFFFFF00)  returns 0x06 (0000ms, 0327ms total)
T35A8 000:410 JLINK_GetNumBPUnits(Type = 0xF0)  returns 0x2000 (0000ms, 0327ms total)
T35A8 000:410 JLINK_GetNumWPUnits()  returns 0x04 (0000ms, 0327ms total)
T35A8 000:416 JLINK_GetSpeed()  returns 0xFA0 (0000ms, 0327ms total)
T35A8 000:419 JLINK_ReadMemU32(0xE000E004, 0x0001 Items, ...) -- CPU_ReadMem(4 bytes @ 0xE000E004) - Data: 01 00 00 00  returns 0x01 (0001ms, 0328ms total)
T35A8 000:420 JLINK_ReadMemU32(0xE000E004, 0x0001 Items, ...) -- CPU_ReadMem(4 bytes @ 0xE000E004) - Data: 01 00 00 00  returns 0x01 (0002ms, 0330ms total)
T35A8 000:422 JLINK_WriteMem(0xE0001000, 0x001C Bytes, ...) - Data: 01 00 00 00 00 00 00 00 00 00 00 00 00 00 00 00 ... -- CPU_WriteMem(28 bytes @ 0xE0001000)  returns 0x1C (0002ms, 0332ms total)
T35A8 000:424 JLINK_ReadMem (0xE0001000, 0x001C Bytes, ...) -- CPU_ReadMem(28 bytes @ 0xE0001000) - Data: 01 00 00 40 00 00 00 00 00 00 00 00 00 00 00 00 ...  returns 0x00 (0002ms, 0334ms total)
T35A8 000:426 JLINK_Halt()  returns 0x00 (0000ms, 0334ms total)
T35A8 000:426 JLINK_IsHalted()  returns TRUE (0000ms, 0334ms total)
T35A8 000:431 JLINK_WriteMem(0x20000000, 0x01F4 Bytes, ...) - Data: 00 BE 0A E0 0D 78 2D 06 68 40 08 24 40 00 00 D3 ... -- CPU_WriteMem(500 bytes @ 0x20000000)  returns 0x1F4 (0007ms, 0341ms total)
T35A8 000:438 JLINK_WriteReg(R0, 0x00000000)  returns 0x00 (0000ms, 0341ms total)
T35A8 000:438 JLINK_WriteReg(R1, 0x03D09000)  returns 0x00 (0000ms, 0341ms total)
T35A8 000:438 JLINK_WriteReg(R2, 0x00000001)  returns 0x00 (0000ms, 0341ms total)
T35A8 000:438 JLINK_WriteReg(R3, 0x00000000)  returns 0x00 (0000ms, 0341ms total)
T35A8 000:438 JLINK_WriteReg(R4, 0x00000000)  returns 0x00 (0000ms, 0341ms total)
T35A8 000:438 JLINK_WriteReg(R5, 0x00000000)  returns 0x00 (0000ms, 0341ms total)
T35A8 000:438 JLINK_WriteReg(R6, 0x00000000)  returns 0x00 (0000ms, 0341ms total)
T35A8 000:438 JLINK_WriteReg(R7, 0x00000000)  returns 0x00 (0000ms, 0341ms total)
T35A8 000:438 JLINK_WriteReg(R8, 0x00000000)  returns 0x00 (0000ms, 0341ms total)
T35A8 000:438 JLINK_WriteReg(R9, 0x200001F0)  returns 0x00 (0000ms, 0341ms total)
T35A8 000:438 JLINK_WriteReg(R10, 0x00000000)  returns 0x00 (0000ms, 0341ms total)
T35A8 000:438 JLINK_WriteReg(R11, 0x00000000)  returns 0x00 (0000ms, 0341ms total)
T35A8 000:438 JLINK_WriteReg(R12, 0x00000000)  returns 0x00 (0000ms, 0341ms total)
T35A8 000:438 JLINK_WriteReg(R13 (SP), 0x20002000)  returns 0x00 (0000ms, 0341ms total)
T35A8 000:438 JLINK_WriteReg(R14, 0x20000001)  returns 0x00 (0000ms, 0341ms total)
T35A8 000:438 JLINK_WriteReg(R15 (PC), 0x20000028)  returns 0x00 (0000ms, 0341ms total)
T35A8 000:438 JLINK_WriteReg(XPSR, 0x01000000)  returns 0x00 (0000ms, 0341ms total)
T35A8 000:438 JLINK_WriteReg(MSP, 0x20002000)  returns 0x00 (0000ms, 0341ms total)
T35A8 000:438 JLINK_WriteReg(PSP, 0x20002000)  returns 0x00 (0000ms, 0341ms total)
T35A8 000:438 JLINK_WriteReg(CFBP, 0x00000000)  returns 0x00 (0000ms, 0341ms total)
T35A8 000:438 JLINK_SetBPEx(Addr = 0x20000000, Type = 0xFFFFFFF2) -- CPU_ReadMem(2 bytes @ 0x20000000)  returns 0x00000001 (0001ms, 0342ms total)
T35A8 000:439 JLINK_Go() -- CPU_WriteMem(2 bytes @ 0x20000000) -- CPU_ReadMem(4 bytes @ 0xE0001000) -- CPU_WriteMem(4 bytes @ 0xE0002008) -- CPU_WriteMem(4 bytes @ 0xE000200C) -- CPU_WriteMem(4 bytes @ 0xE0002010) -- CPU_WriteMem(4 bytes @ 0xE0002014) -- CPU_WriteMem(4 bytes @ 0xE0002018) -- CPU_WriteMem(4 bytes @ 0xE000201C) -- CPU_WriteMem(4 bytes @ 0xE0001004) (0012ms, 0354ms total)
T35A8 000:451 JLINK_IsHalted() -- CPU_ReadMem(2 bytes @ 0x20000000)  returns TRUE (0005ms, 0359ms total)
T35A8 000:456 JLINK_ReadReg(R15 (PC))  returns 0x20000000 (0000ms, 0354ms total)
T35A8 000:456 JLINK_ClrBPEx(BPHandle = 0x00000001)  returns 0x00 (0000ms, 0354ms total)
T35A8 000:456 JLINK_ReadReg(R0)  returns 0x00000000 (0000ms, 0354ms total)
T35A8 000:456 JLINK_WriteReg(R0, 0x00026000)  returns 0x00 (0000ms, 0354ms total)
T35A8 000:456 JLINK_WriteReg(R1, 0x00001000)  returns 0x00 (0000ms, 0354ms total)
T35A8 000:456 JLINK_WriteReg(R2, 0x000000FF)  returns 0x00 (0000ms, 0354ms total)
T35A8 000:456 JLINK_WriteReg(R3, 0x00000000)  returns 0x00 (0000ms, 0354ms total)
T35A8 000:456 JLINK_WriteReg(R4, 0x00000000)  returns 0x00 (0000ms, 0354ms total)
T35A8 000:456 JLINK_WriteReg(R5, 0x00000000)  returns 0x00 (0000ms, 0354ms total)
T35A8 000:456 JLINK_WriteReg(R6, 0x00000000)  returns 0x00 (0000ms, 0354ms total)
T35A8 000:456 JLINK_WriteReg(R7, 0x00000000)  returns 0x00 (0000ms, 0354ms total)
T35A8 000:456 JLINK_WriteReg(R8, 0x00000000)  returns 0x00 (0000ms, 0354ms total)
T35A8 000:456 JLINK_WriteReg(R9, 0x200001F0)  returns 0x00 (0000ms, 0354ms total)
T35A8 000:456 JLINK_WriteReg(R10, 0x00000000)  returns 0x00 (0000ms, 0354ms total)
T35A8 000:456 JLINK_WriteReg(R11, 0x00000000)  returns 0x00 (0000ms, 0354ms total)
T35A8 000:456 JLINK_WriteReg(R12, 0x00000000)  returns 0x00 (0000ms, 0354ms total)
T35A8 000:456 JLINK_WriteReg(R13 (SP), 0x20002000)  returns 0x00 (0000ms, 0354ms total)
T35A8 000:456 JLINK_WriteReg(R14, 0x20000001)  returns 0x00 (0000ms, 0354ms total)
T35A8 000:456 JLINK_WriteReg(R15 (PC), 0x200000E4)  returns 0x00 (0000ms, 0354ms total)
T35A8 000:456 JLINK_WriteReg(XPSR, 0x01000000)  returns 0x00 (0000ms, 0354ms total)
T35A8 000:456 JLINK_WriteReg(MSP, 0x20002000)  returns 0x00 (0000ms, 0354ms total)
T35A8 000:456 JLINK_WriteReg(PSP, 0x20002000)  returns 0x00 (0000ms, 0354ms total)
T35A8 000:456 JLINK_WriteReg(CFBP, 0x00000000)  returns 0x00 (0000ms, 0354ms total)
T35A8 000:456 JLINK_SetBPEx(Addr = 0x20000000, Type = 0xFFFFFFF2)  returns 0x00000002 (0000ms, 0354ms total)
T35A8 000:456 JLINK_Go() -- CPU_ReadMem(4 bytes @ 0xE0001000) (0005ms, 0359ms total)
T35A8 000:461 JLINK_IsHalted() -- CPU_ReadMem(2 bytes @ 0x20000000)  returns TRUE (0007ms, 0366ms total)
T35A8 000:468 JLINK_ReadReg(R15 (PC))  returns 0x20000000 (0000ms, 0359ms total)
T35A8 000:468 JLINK_ClrBPEx(BPHandle = 0x00000002)  returns 0x00 (0000ms, 0359ms total)
T35A8 000:468 JLINK_ReadReg(R0)  returns 0x00000000 (0000ms, 0359ms total)
T35A8 000:468 JLINK_WriteReg(R0, 0x00027000)  returns 0x00 (0000ms, 0359ms total)
T35A8 000:468 JLINK_WriteReg(R1, 0x00001000)  returns 0x00 (0000ms, 0359ms total)
T35A8 000:468 JLINK_WriteReg(R2, 0x000000FF)  returns 0x00 (0000ms, 0359ms total)
T35A8 000:468 JLINK_WriteReg(R3, 0x00000000)  returns 0x00 (0000ms, 0359ms total)
T35A8 000:468 JLINK_WriteReg(R4, 0x00000000)  returns 0x00 (0000ms, 0359ms total)
T35A8 000:468 JLINK_WriteReg(R5, 0x00000000)  returns 0x00 (0000ms, 0359ms total)
T35A8 000:468 JLINK_WriteReg(R6, 0x00000000)  returns 0x00 (0000ms, 0359ms total)
T35A8 000:468 JLINK_WriteReg(R7, 0x00000000)  returns 0x00 (0000ms, 0359ms total)
T35A8 000:468 JLINK_WriteReg(R8, 0x00000000)  returns 0x00 (0000ms, 0359ms total)
T35A8 000:468 JLINK_WriteReg(R9, 0x200001F0)  returns 0x00 (0000ms, 0359ms total)
T35A8 000:468 JLINK_WriteReg(R10, 0x00000000)  returns 0x00 (0000ms, 0359ms total)
T35A8 000:468 JLINK_WriteReg(R11, 0x00000000)  returns 0x00 (0000ms, 0359ms total)
T35A8 000:468 JLINK_WriteReg(R12, 0x00000000)  returns 0x00 (0000ms, 0359ms total)
T35A8 000:468 JLINK_WriteReg(R13 (SP), 0x20002000)  returns 0x00 (0000ms, 0359ms total)
T35A8 000:468 JLINK_WriteReg(R14, 0x20000001)  returns 0x00 (0000ms, 0359ms total)
T35A8 000:468 JLINK_WriteReg(R15 (PC), 0x200000E4)  returns 0x00 (0000ms, 0359ms total)
T35A8 000:468 JLINK_WriteReg(XPSR, 0x01000000)  returns 0x00 (0000ms, 0359ms total)
T35A8 000:468 JLINK_WriteReg(MSP, 0x20002000)  returns 0x00 (0000ms, 0359ms total)
T35A8 000:468 JLINK_WriteReg(PSP, 0x20002000)  returns 0x00 (0000ms, 0359ms total)
T35A8 000:468 JLINK_WriteReg(CFBP, 0x00000000)  returns 0x00 (0000ms, 0359ms total)
T35A8 000:468 JLINK_SetBPEx(Addr = 0x20000000, Type = 0xFFFFFFF2)  returns 0x00000003 (0000ms, 0359ms total)
T35A8 000:468 JLINK_Go() -- CPU_ReadMem(4 bytes @ 0xE0001000) (0005ms, 0364ms total)
T35A8 000:473 JLINK_IsHalted()  returns FALSE (0001ms, 0365ms total)
T35A8 000:498 JLINK_IsHalted() -- CPU_ReadMem(2 bytes @ 0x20000000)  returns TRUE (0005ms, 0369ms total)
T35A8 000:503 JLINK_ReadReg(R15 (PC))  returns 0x20000000 (0000ms, 0364ms total)
T35A8 000:503 JLINK_ClrBPEx(BPHandle = 0x00000003)  returns 0x00 (0000ms, 0364ms total)
T35A8 000:503 JLINK_ReadReg(R0)  returns 0x00000000 (0000ms, 0364ms total)
T35A8 000:503 JLINK_WriteReg(R0, 0x00028000)  returns 0x00 (0000ms, 0364ms total)
T35A8 000:503 JLINK_WriteReg(R1, 0x00001000)  returns 0x00 (0000ms, 0364ms total)
T35A8 000:503 JLINK_WriteReg(R2, 0x000000FF)  returns 0x00 (0000ms, 0364ms total)
T35A8 000:503 JLINK_WriteReg(R3, 0x00000000)  returns 0x00 (0000ms, 0364ms total)
T35A8 000:503 JLINK_WriteReg(R4, 0x00000000)  returns 0x00 (0000ms, 0364ms total)
T35A8 000:503 JLINK_WriteReg(R5, 0x00000000)  returns 0x00 (0000ms, 0364ms total)
T35A8 000:503 JLINK_WriteReg(R6, 0x00000000)  returns 0x00 (0000ms, 0364ms total)
T35A8 000:503 JLINK_WriteReg(R7, 0x00000000)  returns 0x00 (0000ms, 0364ms total)
T35A8 000:503 JLINK_WriteReg(R8, 0x00000000)  returns 0x00 (0000ms, 0364ms total)
T35A8 000:503 JLINK_WriteReg(R9, 0x200001F0)  returns 0x00 (0000ms, 0364ms total)
T35A8 000:503 JLINK_WriteReg(R10, 0x00000000)  returns 0x00 (0000ms, 0364ms total)
T35A8 000:503 JLINK_WriteReg(R11, 0x00000000)  returns 0x00 (0000ms, 0364ms total)
T35A8 000:503 JLINK_WriteReg(R12, 0x00000000)  returns 0x00 (0000ms, 0364ms total)
T35A8 000:503 JLINK_WriteReg(R13 (SP), 0x20002000)  returns 0x00 (0000ms, 0364ms total)
T35A8 000:503 JLINK_WriteReg(R14, 0x20000001)  returns 0x00 (0000ms, 0364ms total)
T35A8 000:503 JLINK_WriteReg(R15 (PC), 0x200000E4)  returns 0x00 (0000ms, 0364ms total)
T35A8 000:503 JLINK_WriteReg(XPSR, 0x01000000)  returns 0x00 (0000ms, 0364ms total)
T35A8 000:503 JLINK_WriteReg(MSP, 0x20002000)  returns 0x00 (0000ms, 0364ms total)
T35A8 000:503 JLINK_WriteReg(PSP, 0x20002000)  returns 0x00 (0000ms, 0364ms total)
T35A8 000:503 JLINK_WriteReg(CFBP, 0x00000000)  returns 0x00 (0000ms, 0364ms total)
T35A8 000:503 JLINK_SetBPEx(Addr = 0x20000000, Type = 0xFFFFFFF2)  returns 0x00000004 (0000ms, 0364ms total)
T35A8 000:503 JLINK_Go() -- CPU_ReadMem(4 bytes @ 0xE0001000) (0004ms, 0368ms total)
T35A8 000:507 JLINK_IsHalted()  returns FALSE (0001ms, 0369ms total)
T35A8 000:509 JLINK_IsHalted() -- CPU_ReadMem(2 bytes @ 0x20000000)  returns TRUE (0004ms, 0372ms total)
T35A8 000:513 JLINK_ReadReg(R15 (PC))  returns 0x20000000 (0000ms, 0368ms total)
T35A8 000:513 JLINK_ClrBPEx(BPHandle = 0x00000004)  returns 0x00 (0000ms, 0368ms total)
T35A8 000:513 JLINK_ReadReg(R0)  returns 0x00000000 (0000ms, 0368ms total)
T35A8 000:515 JLINK_WriteReg(R0, 0x00029000)  returns 0x00 (0000ms, 0368ms total)
T35A8 000:515 JLINK_WriteReg(R1, 0x00001000)  returns 0x00 (0000ms, 0368ms total)
T35A8 000:515 JLINK_WriteReg(R2, 0x000000FF)  returns 0x00 (0000ms, 0368ms total)
T35A8 000:515 JLINK_WriteReg(R3, 0x00000000)  returns 0x00 (0000ms, 0368ms total)
T35A8 000:515 JLINK_WriteReg(R4, 0x00000000)  returns 0x00 (0000ms, 0368ms total)
T35A8 000:515 JLINK_WriteReg(R5, 0x00000000)  returns 0x00 (0000ms, 0368ms total)
T35A8 000:515 JLINK_WriteReg(R6, 0x00000000)  returns 0x00 (0000ms, 0368ms total)
T35A8 000:515 JLINK_WriteReg(R7, 0x00000000)  returns 0x00 (0000ms, 0368ms total)
T35A8 000:515 JLINK_WriteReg(R8, 0x00000000)  returns 0x00 (0000ms, 0368ms total)
T35A8 000:515 JLINK_WriteReg(R9, 0x200001F0)  returns 0x00 (0000ms, 0368ms total)
T35A8 000:515 JLINK_WriteReg(R10, 0x00000000)  returns 0x00 (0000ms, 0368ms total)
T35A8 000:515 JLINK_WriteReg(R11, 0x00000000)  returns 0x00 (0000ms, 0368ms total)
T35A8 000:515 JLINK_WriteReg(R12, 0x00000000)  returns 0x00 (0000ms, 0368ms total)
T35A8 000:515 JLINK_WriteReg(R13 (SP), 0x20002000)  returns 0x00 (0000ms, 0368ms total)
T35A8 000:515 JLINK_WriteReg(R14, 0x20000001)  returns 0x00 (0000ms, 0368ms total)
T35A8 000:515 JLINK_WriteReg(R15 (PC), 0x200000E4)  returns 0x00 (0000ms, 0368ms total)
T35A8 000:515 JLINK_WriteReg(XPSR, 0x01000000)  returns 0x00 (0000ms, 0368ms total)
T35A8 000:515 JLINK_WriteReg(MSP, 0x20002000)  returns 0x00 (0000ms, 0368ms total)
T35A8 000:515 JLINK_WriteReg(PSP, 0x20002000)  returns 0x00 (0000ms, 0368ms total)
T35A8 000:515 JLINK_WriteReg(CFBP, 0x00000000)  returns 0x00 (0000ms, 0368ms total)
T35A8 000:515 JLINK_SetBPEx(Addr = 0x20000000, Type = 0xFFFFFFF2)  returns 0x00000005 (0000ms, 0368ms total)
T35A8 000:515 JLINK_Go() -- CPU_ReadMem(4 bytes @ 0xE0001000) (0004ms, 0372ms total)
T35A8 000:519 JLINK_IsHalted()  returns FALSE (0001ms, 0373ms total)
T35A8 000:522 JLINK_IsHalted() -- CPU_ReadMem(2 bytes @ 0x20000000)  returns TRUE (0004ms, 0376ms total)
T35A8 000:526 JLINK_ReadReg(R15 (PC))  returns 0x20000000 (0000ms, 0372ms total)
T35A8 000:527 JLINK_ClrBPEx(BPHandle = 0x00000005)  returns 0x00 (0000ms, 0372ms total)
T35A8 000:527 JLINK_ReadReg(R0)  returns 0x00000000 (0000ms, 0372ms total)
T35A8 000:527 JLINK_WriteReg(R0, 0x0002A000)  returns 0x00 (0000ms, 0372ms total)
T35A8 000:527 JLINK_WriteReg(R1, 0x00001000)  returns 0x00 (0000ms, 0372ms total)
T35A8 000:527 JLINK_WriteReg(R2, 0x000000FF)  returns 0x00 (0000ms, 0372ms total)
T35A8 000:527 JLINK_WriteReg(R3, 0x00000000)  returns 0x00 (0000ms, 0372ms total)
T35A8 000:527 JLINK_WriteReg(R4, 0x00000000)  returns 0x00 (0000ms, 0372ms total)
T35A8 000:527 JLINK_WriteReg(R5, 0x00000000)  returns 0x00 (0000ms, 0372ms total)
T35A8 000:527 JLINK_WriteReg(R6, 0x00000000)  returns 0x00 (0000ms, 0372ms total)
T35A8 000:527 JLINK_WriteReg(R7, 0x00000000)  returns 0x00 (0000ms, 0372ms total)
T35A8 000:527 JLINK_WriteReg(R8, 0x00000000)  returns 0x00 (0000ms, 0372ms total)
T35A8 000:527 JLINK_WriteReg(R9, 0x200001F0)  returns 0x00 (0000ms, 0372ms total)
T35A8 000:527 JLINK_WriteReg(R10, 0x00000000)  returns 0x00 (0000ms, 0372ms total)
T35A8 000:527 JLINK_WriteReg(R11, 0x00000000)  returns 0x00 (0000ms, 0372ms total)
T35A8 000:527 JLINK_WriteReg(R12, 0x00000000)  returns 0x00 (0000ms, 0372ms total)
T35A8 000:527 JLINK_WriteReg(R13 (SP), 0x20002000)  returns 0x00 (0000ms, 0372ms total)
T35A8 000:527 JLINK_WriteReg(R14, 0x20000001)  returns 0x00 (0000ms, 0372ms total)
T35A8 000:527 JLINK_WriteReg(R15 (PC), 0x200000E4)  returns 0x00 (0000ms, 0372ms total)
T35A8 000:527 JLINK_WriteReg(XPSR, 0x01000000)  returns 0x00 (0000ms, 0372ms total)
T35A8 000:527 JLINK_WriteReg(MSP, 0x20002000)  returns 0x00 (0000ms, 0372ms total)
T35A8 000:527 JLINK_WriteReg(PSP, 0x20002000)  returns 0x00 (0000ms, 0372ms total)
T35A8 000:527 JLINK_WriteReg(CFBP, 0x00000000)  returns 0x00 (0000ms, 0372ms total)
T35A8 000:527 JLINK_SetBPEx(Addr = 0x20000000, Type = 0xFFFFFFF2)  returns 0x00000006 (0000ms, 0372ms total)
T35A8 000:527 JLINK_Go() -- CPU_ReadMem(4 bytes @ 0xE0001000) (0003ms, 0375ms total)
T35A8 000:530 JLINK_IsHalted() -- CPU_ReadMem(2 bytes @ 0x20000000)  returns TRUE (0007ms, 0382ms total)
T35A8 000:537 JLINK_ReadReg(R15 (PC))  returns 0x20000000 (0000ms, 0375ms total)
T35A8 000:537 JLINK_ClrBPEx(BPHandle = 0x00000006)  returns 0x00 (0000ms, 0375ms total)
T35A8 000:537 JLINK_ReadReg(R0)  returns 0x00000000 (0000ms, 0375ms total)
T35A8 000:538 JLINK_WriteReg(R0, 0x0002B000)  returns 0x00 (0000ms, 0375ms total)
T35A8 000:538 JLINK_WriteReg(R1, 0x00001000)  returns 0x00 (0000ms, 0375ms total)
T35A8 000:538 JLINK_WriteReg(R2, 0x000000FF)  returns 0x00 (0000ms, 0375ms total)
T35A8 000:538 JLINK_WriteReg(R3, 0x00000000)  returns 0x00 (0000ms, 0375ms total)
T35A8 000:538 JLINK_WriteReg(R4, 0x00000000)  returns 0x00 (0000ms, 0375ms total)
T35A8 000:538 JLINK_WriteReg(R5, 0x00000000)  returns 0x00 (0000ms, 0375ms total)
T35A8 000:538 JLINK_WriteReg(R6, 0x00000000)  returns 0x00 (0000ms, 0375ms total)
T35A8 000:538 JLINK_WriteReg(R7, 0x00000000)  returns 0x00 (0000ms, 0375ms total)
T35A8 000:538 JLINK_WriteReg(R8, 0x00000000)  returns 0x00 (0000ms, 0375ms total)
T35A8 000:538 JLINK_WriteReg(R9, 0x200001F0)  returns 0x00 (0000ms, 0375ms total)
T35A8 000:538 JLINK_WriteReg(R10, 0x00000000)  returns 0x00 (0000ms, 0375ms total)
T35A8 000:538 JLINK_WriteReg(R11, 0x00000000)  returns 0x00 (0000ms, 0375ms total)
T35A8 000:538 JLINK_WriteReg(R12, 0x00000000)  returns 0x00 (0000ms, 0375ms total)
T35A8 000:538 JLINK_WriteReg(R13 (SP), 0x20002000)  returns 0x00 (0000ms, 0375ms total)
T35A8 000:538 JLINK_WriteReg(R14, 0x20000001)  returns 0x00 (0000ms, 0375ms total)
T35A8 000:538 JLINK_WriteReg(R15 (PC), 0x200000E4)  returns 0x00 (0000ms, 0375ms total)
T35A8 000:538 JLINK_WriteReg(XPSR, 0x01000000)  returns 0x00 (0000ms, 0375ms total)
T35A8 000:538 JLINK_WriteReg(MSP, 0x20002000)  returns 0x00 (0000ms, 0375ms total)
T35A8 000:538 JLINK_WriteReg(PSP, 0x20002000)  returns 0x00 (0001ms, 0376ms total)
T35A8 000:539 JLINK_WriteReg(CFBP, 0x00000000)  returns 0x00 (0000ms, 0376ms total)
T35A8 000:539 JLINK_SetBPEx(Addr = 0x20000000, Type = 0xFFFFFFF2)  returns 0x00000007 (0000ms, 0376ms total)
T35A8 000:539 JLINK_Go() -- CPU_ReadMem(4 bytes @ 0xE0001000) (0003ms, 0379ms total)
T35A8 000:542 JLINK_IsHalted()  returns FALSE (0001ms, 0380ms total)
T35A8 000:547 JLINK_IsHalted() -- CPU_ReadMem(2 bytes @ 0x20000000)  returns TRUE (0006ms, 0385ms total)
T35A8 000:553 JLINK_ReadReg(R15 (PC))  returns 0x20000000 (0000ms, 0379ms total)
T35A8 000:553 JLINK_ClrBPEx(BPHandle = 0x00000007)  returns 0x00 (0000ms, 0379ms total)
T35A8 000:553 JLINK_ReadReg(R0)  returns 0x00000000 (0000ms, 0379ms total)
T35A8 000:554 JLINK_WriteReg(R0, 0x0002C000)  returns 0x00 (0000ms, 0379ms total)
T35A8 000:554 JLINK_WriteReg(R1, 0x00001000)  returns 0x00 (0000ms, 0379ms total)
T35A8 000:554 JLINK_WriteReg(R2, 0x000000FF)  returns 0x00 (0000ms, 0379ms total)
T35A8 000:554 JLINK_WriteReg(R3, 0x00000000)  returns 0x00 (0000ms, 0379ms total)
T35A8 000:554 JLINK_WriteReg(R4, 0x00000000)  returns 0x00 (0000ms, 0379ms total)
T35A8 000:554 JLINK_WriteReg(R5, 0x00000000)  returns 0x00 (0000ms, 0379ms total)
T35A8 000:554 JLINK_WriteReg(R6, 0x00000000)  returns 0x00 (0000ms, 0379ms total)
T35A8 000:554 JLINK_WriteReg(R7, 0x00000000)  returns 0x00 (0000ms, 0379ms total)
T35A8 000:554 JLINK_WriteReg(R8, 0x00000000)  returns 0x00 (0000ms, 0379ms total)
T35A8 000:554 JLINK_WriteReg(R9, 0x200001F0)  returns 0x00 (0000ms, 0379ms total)
T35A8 000:554 JLINK_WriteReg(R10, 0x00000000)  returns 0x00 (0000ms, 0379ms total)
T35A8 000:554 JLINK_WriteReg(R11, 0x00000000)  returns 0x00 (0000ms, 0379ms total)
T35A8 000:554 JLINK_WriteReg(R12, 0x00000000)  returns 0x00 (0000ms, 0379ms total)
T35A8 000:554 JLINK_WriteReg(R13 (SP), 0x20002000)  returns 0x00 (0000ms, 0379ms total)
T35A8 000:554 JLINK_WriteReg(R14, 0x20000001)  returns 0x00 (0000ms, 0379ms total)
T35A8 000:554 JLINK_WriteReg(R15 (PC), 0x200000E4)  returns 0x00 (0000ms, 0379ms total)
T35A8 000:554 JLINK_WriteReg(XPSR, 0x01000000)  returns 0x00 (0000ms, 0379ms total)
T35A8 000:554 JLINK_WriteReg(MSP, 0x20002000)  returns 0x00 (0000ms, 0379ms total)
T35A8 000:554 JLINK_WriteReg(PSP, 0x20002000)  returns 0x00 (0000ms, 0379ms total)
T35A8 000:554 JLINK_WriteReg(CFBP, 0x00000000)  returns 0x00 (0000ms, 0379ms total)
T35A8 000:554 JLINK_SetBPEx(Addr = 0x20000000, Type = 0xFFFFFFF2)  returns 0x00000008 (0000ms, 0379ms total)
T35A8 000:554 JLINK_Go() -- CPU_ReadMem(4 bytes @ 0xE0001000) (0004ms, 0383ms total)
T35A8 000:559 JLINK_IsHalted()  returns FALSE (0000ms, 0383ms total)
T35A8 000:562 JLINK_IsHalted() -- CPU_ReadMem(2 bytes @ 0x20000000)  returns TRUE (0006ms, 0389ms total)
T35A8 000:568 JLINK_ReadReg(R15 (PC))  returns 0x20000000 (0000ms, 0383ms total)
T35A8 000:568 JLINK_ClrBPEx(BPHandle = 0x00000008)  returns 0x00 (0000ms, 0383ms total)
T35A8 000:568 JLINK_ReadReg(R0)  returns 0x00000000 (0000ms, 0383ms total)
T35A8 000:568 JLINK_WriteReg(R0, 0x0002D000)  returns 0x00 (0000ms, 0383ms total)
T35A8 000:568 JLINK_WriteReg(R1, 0x00001000)  returns 0x00 (0000ms, 0383ms total)
T35A8 000:568 JLINK_WriteReg(R2, 0x000000FF)  returns 0x00 (0000ms, 0383ms total)
T35A8 000:568 JLINK_WriteReg(R3, 0x00000000)  returns 0x00 (0000ms, 0383ms total)
T35A8 000:568 JLINK_WriteReg(R4, 0x00000000)  returns 0x00 (0000ms, 0383ms total)
T35A8 000:568 JLINK_WriteReg(R5, 0x00000000)  returns 0x00 (0000ms, 0383ms total)
T35A8 000:568 JLINK_WriteReg(R6, 0x00000000)  returns 0x00 (0000ms, 0383ms total)
T35A8 000:568 JLINK_WriteReg(R7, 0x00000000)  returns 0x00 (0000ms, 0383ms total)
T35A8 000:568 JLINK_WriteReg(R8, 0x00000000)  returns 0x00 (0000ms, 0383ms total)
T35A8 000:568 JLINK_WriteReg(R9, 0x200001F0)  returns 0x00 (0000ms, 0383ms total)
T35A8 000:568 JLINK_WriteReg(R10, 0x00000000)  returns 0x00 (0000ms, 0383ms total)
T35A8 000:568 JLINK_WriteReg(R11, 0x00000000)  returns 0x00 (0000ms, 0383ms total)
T35A8 000:568 JLINK_WriteReg(R12, 0x00000000)  returns 0x00 (0000ms, 0383ms total)
T35A8 000:568 JLINK_WriteReg(R13 (SP), 0x20002000)  returns 0x00 (0000ms, 0383ms total)
T35A8 000:568 JLINK_WriteReg(R14, 0x20000001)  returns 0x00 (0000ms, 0383ms total)
T35A8 000:568 JLINK_WriteReg(R15 (PC), 0x200000E4)  returns 0x00 (0000ms, 0383ms total)
T35A8 000:568 JLINK_WriteReg(XPSR, 0x01000000)  returns 0x00 (0000ms, 0383ms total)
T35A8 000:568 JLINK_WriteReg(MSP, 0x20002000)  returns 0x00 (0000ms, 0383ms total)
T35A8 000:568 JLINK_WriteReg(PSP, 0x20002000)  returns 0x00 (0000ms, 0383ms total)
T35A8 000:568 JLINK_WriteReg(CFBP, 0x00000000)  returns 0x00 (0000ms, 0383ms total)
T35A8 000:568 JLINK_SetBPEx(Addr = 0x20000000, Type = 0xFFFFFFF2)  returns 0x00000009 (0000ms, 0383ms total)
T35A8 000:568 JLINK_Go() -- CPU_ReadMem(4 bytes @ 0xE0001000) (0004ms, 0387ms total)
T35A8 000:572 JLINK_IsHalted() -- CPU_ReadMem(2 bytes @ 0x20000000)  returns TRUE (0007ms, 0394ms total)
T35A8 000:579 JLINK_ReadReg(R15 (PC))  returns 0x20000000 (0000ms, 0387ms total)
T35A8 000:579 JLINK_ClrBPEx(BPHandle = 0x00000009)  returns 0x00 (0000ms, 0387ms total)
T35A8 000:579 JLINK_ReadReg(R0)  returns 0x00000000 (0000ms, 0387ms total)
T35A8 000:579 JLINK_WriteReg(R0, 0x0002E000)  returns 0x00 (0000ms, 0387ms total)
T35A8 000:579 JLINK_WriteReg(R1, 0x00001000)  returns 0x00 (0000ms, 0387ms total)
T35A8 000:579 JLINK_WriteReg(R2, 0x000000FF)  returns 0x00 (0000ms, 0387ms total)
T35A8 000:579 JLINK_WriteReg(R3, 0x00000000)  returns 0x00 (0000ms, 0387ms total)
T35A8 000:579 JLINK_WriteReg(R4, 0x00000000)  returns 0x00 (0000ms, 0387ms total)
T35A8 000:579 JLINK_WriteReg(R5, 0x00000000)  returns 0x00 (0000ms, 0387ms total)
T35A8 000:579 JLINK_WriteReg(R6, 0x00000000)  returns 0x00 (0000ms, 0387ms total)
T35A8 000:579 JLINK_WriteReg(R7, 0x00000000)  returns 0x00 (0000ms, 0387ms total)
T35A8 000:579 JLINK_WriteReg(R8, 0x00000000)  returns 0x00 (0000ms, 0387ms total)
T35A8 000:579 JLINK_WriteReg(R9, 0x200001F0)  returns 0x00 (0000ms, 0387ms total)
T35A8 000:579 JLINK_WriteReg(R10, 0x00000000)  returns 0x00 (0000ms, 0387ms total)
T35A8 000:579 JLINK_WriteReg(R11, 0x00000000)  returns 0x00 (0000ms, 0387ms total)
T35A8 000:579 JLINK_WriteReg(R12, 0x00000000)  returns 0x00 (0000ms, 0387ms total)
T35A8 000:579 JLINK_WriteReg(R13 (SP), 0x20002000)  returns 0x00 (0000ms, 0387ms total)
T35A8 000:579 JLINK_WriteReg(R14, 0x20000001)  returns 0x00 (0000ms, 0387ms total)
T35A8 000:579 JLINK_WriteReg(R15 (PC), 0x200000E4)  returns 0x00 (0000ms, 0387ms total)
T35A8 000:579 JLINK_WriteReg(XPSR, 0x01000000)  returns 0x00 (0000ms, 0387ms total)
T35A8 000:579 JLINK_WriteReg(MSP, 0x20002000)  returns 0x00 (0000ms, 0387ms total)
T35A8 000:579 JLINK_WriteReg(PSP, 0x20002000)  returns 0x00 (0000ms, 0387ms total)
T35A8 000:579 JLINK_WriteReg(CFBP, 0x00000000)  returns 0x00 (0000ms, 0387ms total)
T35A8 000:579 JLINK_SetBPEx(Addr = 0x20000000, Type = 0xFFFFFFF2)  returns 0x0000000A (0000ms, 0387ms total)
T35A8 000:579 JLINK_Go() -- CPU_ReadMem(4 bytes @ 0xE0001000) (0005ms, 0392ms total)
T35A8 000:584 JLINK_IsHalted()  returns FALSE (0001ms, 0393ms total)
T35A8 000:589 JLINK_IsHalted() -- CPU_ReadMem(2 bytes @ 0x20000000)  returns TRUE (0005ms, 0397ms total)
T35A8 000:594 JLINK_ReadReg(R15 (PC))  returns 0x20000000 (0000ms, 0392ms total)
T35A8 000:594 JLINK_ClrBPEx(BPHandle = 0x0000000A)  returns 0x00 (0000ms, 0392ms total)
T35A8 000:594 JLINK_ReadReg(R0)  returns 0x00000000 (0000ms, 0392ms total)
T35A8 000:594 JLINK_WriteReg(R0, 0x0002F000)  returns 0x00 (0000ms, 0392ms total)
T35A8 000:594 JLINK_WriteReg(R1, 0x00001000)  returns 0x00 (0000ms, 0392ms total)
T35A8 000:594 JLINK_WriteReg(R2, 0x000000FF)  returns 0x00 (0000ms, 0392ms total)
T35A8 000:594 JLINK_WriteReg(R3, 0x00000000)  returns 0x00 (0000ms, 0392ms total)
T35A8 000:594 JLINK_WriteReg(R4, 0x00000000)  returns 0x00 (0000ms, 0392ms total)
T35A8 000:594 JLINK_WriteReg(R5, 0x00000000)  returns 0x00 (0000ms, 0392ms total)
T35A8 000:594 JLINK_WriteReg(R6, 0x00000000)  returns 0x00 (0000ms, 0392ms total)
T35A8 000:594 JLINK_WriteReg(R7, 0x00000000)  returns 0x00 (0000ms, 0392ms total)
T35A8 000:594 JLINK_WriteReg(R8, 0x00000000)  returns 0x00 (0000ms, 0392ms total)
T35A8 000:594 JLINK_WriteReg(R9, 0x200001F0)  returns 0x00 (0000ms, 0392ms total)
T35A8 000:594 JLINK_WriteReg(R10, 0x00000000)  returns 0x00 (0000ms, 0392ms total)
T35A8 000:594 JLINK_WriteReg(R11, 0x00000000)  returns 0x00 (0000ms, 0392ms total)
T35A8 000:594 JLINK_WriteReg(R12, 0x00000000)  returns 0x00 (0000ms, 0392ms total)
T35A8 000:594 JLINK_WriteReg(R13 (SP), 0x20002000)  returns 0x00 (0000ms, 0392ms total)
T35A8 000:594 JLINK_WriteReg(R14, 0x20000001)  returns 0x00 (0000ms, 0392ms total)
T35A8 000:594 JLINK_WriteReg(R15 (PC), 0x200000E4)  returns 0x00 (0000ms, 0392ms total)
T35A8 000:594 JLINK_WriteReg(XPSR, 0x01000000)  returns 0x00 (0000ms, 0392ms total)
T35A8 000:594 JLINK_WriteReg(MSP, 0x20002000)  returns 0x00 (0000ms, 0392ms total)
T35A8 000:594 JLINK_WriteReg(PSP, 0x20002000)  returns 0x00 (0000ms, 0392ms total)
T35A8 000:594 JLINK_WriteReg(CFBP, 0x00000000)  returns 0x00 (0000ms, 0392ms total)
T35A8 000:594 JLINK_SetBPEx(Addr = 0x20000000, Type = 0xFFFFFFF2)  returns 0x0000000B (0000ms, 0392ms total)
T35A8 000:594 JLINK_Go() -- CPU_ReadMem(4 bytes @ 0xE0001000) (0004ms, 0396ms total)
T35A8 000:598 JLINK_IsHalted()  returns FALSE (0001ms, 0397ms total)
T35A8 000:601 JLINK_IsHalted() -- CPU_ReadMem(2 bytes @ 0x20000000)  returns TRUE (0004ms, 0400ms total)
T35A8 000:605 JLINK_ReadReg(R15 (PC))  returns 0x20000000 (0000ms, 0396ms total)
T35A8 000:605 JLINK_ClrBPEx(BPHandle = 0x0000000B)  returns 0x00 (0000ms, 0396ms total)
T35A8 000:605 JLINK_ReadReg(R0)  returns 0x00000000 (0000ms, 0396ms total)
T35A8 000:606 JLINK_WriteReg(R0, 0x00000001)  returns 0x00 (0000ms, 0396ms total)
T35A8 000:606 JLINK_WriteReg(R1, 0x00001000)  returns 0x00 (0000ms, 0396ms total)
T35A8 000:606 JLINK_WriteReg(R2, 0x000000FF)  returns 0x00 (0000ms, 0396ms total)
T35A8 000:606 JLINK_WriteReg(R3, 0x00000000)  returns 0x00 (0000ms, 0396ms total)
T35A8 000:606 JLINK_WriteReg(R4, 0x00000000)  returns 0x00 (0000ms, 0396ms total)
T35A8 000:606 JLINK_WriteReg(R5, 0x00000000)  returns 0x00 (0000ms, 0396ms total)
T35A8 000:606 JLINK_WriteReg(R6, 0x00000000)  returns 0x00 (0000ms, 0396ms total)
T35A8 000:606 JLINK_WriteReg(R7, 0x00000000)  returns 0x00 (0000ms, 0396ms total)
T35A8 000:606 JLINK_WriteReg(R8, 0x00000000)  returns 0x00 (0000ms, 0396ms total)
T35A8 000:606 JLINK_WriteReg(R9, 0x200001F0)  returns 0x00 (0000ms, 0396ms total)
T35A8 000:606 JLINK_WriteReg(R10, 0x00000000)  returns 0x00 (0000ms, 0396ms total)
T35A8 000:606 JLINK_WriteReg(R11, 0x00000000)  returns 0x00 (0000ms, 0396ms total)
T35A8 000:606 JLINK_WriteReg(R12, 0x00000000)  returns 0x00 (0000ms, 0396ms total)
T35A8 000:606 JLINK_WriteReg(R13 (SP), 0x20002000)  returns 0x00 (0000ms, 0396ms total)
T35A8 000:606 JLINK_WriteReg(R14, 0x20000001)  returns 0x00 (0000ms, 0396ms total)
T35A8 000:606 JLINK_WriteReg(R15 (PC), 0x20000058)  returns 0x00 (0000ms, 0396ms total)
T35A8 000:606 JLINK_WriteReg(XPSR, 0x01000000)  returns 0x00 (0000ms, 0396ms total)
T35A8 000:606 JLINK_WriteReg(MSP, 0x20002000)  returns 0x00 (0000ms, 0396ms total)
T35A8 000:606 JLINK_WriteReg(PSP, 0x20002000)  returns 0x00 (0000ms, 0396ms total)
T35A8 000:606 JLINK_WriteReg(CFBP, 0x00000000)  returns 0x00 (0000ms, 0396ms total)
T35A8 000:606 JLINK_SetBPEx(Addr = 0x20000000, Type = 0xFFFFFFF2)  returns 0x0000000C (0000ms, 0396ms total)
T35A8 000:606 JLINK_Go() -- CPU_ReadMem(4 bytes @ 0xE0001000) (0005ms, 0401ms total)
T35A8 000:611 JLINK_IsHalted() -- CPU_ReadMem(2 bytes @ 0x20000000)  returns TRUE (0006ms, 0407ms total)
T35A8 000:617 JLINK_ReadReg(R15 (PC))  returns 0x20000000 (0000ms, 0401ms total)
T35A8 000:617 JLINK_ClrBPEx(BPHandle = 0x0000000C)  returns 0x00 (0000ms, 0401ms total)
T35A8 000:617 JLINK_ReadReg(R0)  returns 0x00000000 (0000ms, 0401ms total)
T35A8 000:671 JLINK_WriteMem(0x20000000, 0x01F4 Bytes, ...) - Data: 00 BE 0A E0 0D 78 2D 06 68 40 08 24 40 00 00 D3 ... -- CPU_WriteMem(500 bytes @ 0x20000000)  returns 0x1F4 (0006ms, 0407ms total)
T35A8 000:677 JLINK_WriteReg(R0, 0x00000000)  returns 0x00 (0001ms, 0408ms total)
T35A8 000:678 JLINK_WriteReg(R1, 0x03D09000)  returns 0x00 (0000ms, 0408ms total)
T35A8 000:678 JLINK_WriteReg(R2, 0x00000002)  returns 0x00 (0000ms, 0408ms total)
T35A8 000:678 JLINK_WriteReg(R3, 0x00000000)  returns 0x00 (0000ms, 0408ms total)
T35A8 000:678 JLINK_WriteReg(R4, 0x00000000)  returns 0x00 (0000ms, 0408ms total)
T35A8 000:678 JLINK_WriteReg(R5, 0x00000000)  returns 0x00 (0000ms, 0408ms total)
T35A8 000:678 JLINK_WriteReg(R6, 0x00000000)  returns 0x00 (0000ms, 0408ms total)
T35A8 000:678 JLINK_WriteReg(R7, 0x00000000)  returns 0x00 (0000ms, 0408ms total)
T35A8 000:678 JLINK_WriteReg(R8, 0x00000000)  returns 0x00 (0000ms, 0408ms total)
T35A8 000:678 JLINK_WriteReg(R9, 0x200001F0)  returns 0x00 (0000ms, 0408ms total)
T35A8 000:678 JLINK_WriteReg(R10, 0x00000000)  returns 0x00 (0000ms, 0408ms total)
T35A8 000:678 JLINK_WriteReg(R11, 0x00000000)  returns 0x00 (0000ms, 0408ms total)
T35A8 000:678 JLINK_WriteReg(R12, 0x00000000)  returns 0x00 (0000ms, 0408ms total)
T35A8 000:678 JLINK_WriteReg(R13 (SP), 0x20002000)  returns 0x00 (0000ms, 0408ms total)
T35A8 000:678 JLINK_WriteReg(R14, 0x20000001)  returns 0x00 (0000ms, 0408ms total)
T35A8 000:678 JLINK_WriteReg(R15 (PC), 0x20000028)  returns 0x00 (0000ms, 0408ms total)
T35A8 000:678 JLINK_WriteReg(XPSR, 0x01000000)  returns 0x00 (0000ms, 0408ms total)
T35A8 000:678 JLINK_WriteReg(MSP, 0x20002000)  returns 0x00 (0000ms, 0408ms total)
T35A8 000:678 JLINK_WriteReg(PSP, 0x20002000)  returns 0x00 (0000ms, 0408ms total)
T35A8 000:678 JLINK_WriteReg(CFBP, 0x00000000)  returns 0x00 (0000ms, 0408ms total)
T35A8 000:678 JLINK_SetBPEx(Addr = 0x20000000, Type = 0xFFFFFFF2) -- CPU_ReadMem(2 bytes @ 0x20000000)  returns 0x0000000D (0000ms, 0408ms total)
T35A8 000:678 JLINK_Go() -- CPU_WriteMem(2 bytes @ 0x20000000) -- CPU_ReadMem(4 bytes @ 0xE0001000) (0005ms, 0413ms total)
T35A8 000:683 JLINK_IsHalted() -- CPU_ReadMem(2 bytes @ 0x20000000)  returns TRUE (0007ms, 0420ms total)
T35A8 000:690 JLINK_ReadReg(R15 (PC))  returns 0x20000000 (0000ms, 0413ms total)
T35A8 000:690 JLINK_ClrBPEx(BPHandle = 0x0000000D)  returns 0x00 (0000ms, 0413ms total)
T35A8 000:690 JLINK_ReadReg(R0)  returns 0x00000000 (0000ms, 0413ms total)
T35A8 000:690 JLINK_WriteMem(0x200001F4, 0x0E0C Bytes, ...) - Data: 30 51 00 20 C1 63 02 00 C9 63 02 00 CB 63 02 00 ... -- CPU_WriteMem(3596 bytes @ 0x200001F4)  returns 0xE0C (0041ms, 0454ms total)
T35A8 000:731 JLINK_WriteMem(0x20001000, 0x01F4 Bytes, ...) - Data: 88 FC 05 48 00 1F 00 68 A8 60 00 20 70 BD 00 00 ... -- CPU_WriteMem(500 bytes @ 0x20001000)  returns 0x1F4 (0007ms, 0461ms total)
T35A8 000:738 JLINK_WriteReg(R0, 0x00026000)  returns 0x00 (0000ms, 0461ms total)
T35A8 000:738 JLINK_WriteReg(R1, 0x00001000)  returns 0x00 (0000ms, 0461ms total)
T35A8 000:738 JLINK_WriteReg(R2, 0x200001F4)  returns 0x00 (0000ms, 0461ms total)
T35A8 000:738 JLINK_WriteReg(R3, 0x00000000)  returns 0x00 (0000ms, 0461ms total)
T35A8 000:738 JLINK_WriteReg(R4, 0x00000000)  returns 0x00 (0000ms, 0461ms total)
T35A8 000:738 JLINK_WriteReg(R5, 0x00000000)  returns 0x00 (0000ms, 0461ms total)
T35A8 000:738 JLINK_WriteReg(R6, 0x00000000)  returns 0x00 (0000ms, 0461ms total)
T35A8 000:738 JLINK_WriteReg(R7, 0x00000000)  returns 0x00 (0000ms, 0461ms total)
T35A8 000:738 JLINK_WriteReg(R8, 0x00000000)  returns 0x00 (0000ms, 0461ms total)
T35A8 000:738 JLINK_WriteReg(R9, 0x200001F0)  returns 0x00 (0000ms, 0461ms total)
T35A8 000:738 JLINK_WriteReg(R10, 0x00000000)  returns 0x00 (0000ms, 0461ms total)
T35A8 000:738 JLINK_WriteReg(R11, 0x00000000)  returns 0x00 (0000ms, 0461ms total)
T35A8 000:738 JLINK_WriteReg(R12, 0x00000000)  returns 0x00 (0000ms, 0461ms total)
T35A8 000:738 JLINK_WriteReg(R13 (SP), 0x20002000)  returns 0x00 (0000ms, 0461ms total)
T35A8 000:738 JLINK_WriteReg(R14, 0x20000001)  returns 0x00 (0000ms, 0461ms total)
T35A8 000:738 JLINK_WriteReg(R15 (PC), 0x20000120)  returns 0x00 (0000ms, 0461ms total)
T35A8 000:738 JLINK_WriteReg(XPSR, 0x01000000)  returns 0x00 (0000ms, 0461ms total)
T35A8 000:738 JLINK_WriteReg(MSP, 0x20002000)  returns 0x00 (0000ms, 0461ms total)
T35A8 000:738 JLINK_WriteReg(PSP, 0x20002000)  returns 0x00 (0000ms, 0461ms total)
T35A8 000:738 JLINK_WriteReg(CFBP, 0x00000000)  returns 0x00 (0000ms, 0461ms total)
T35A8 000:738 JLINK_SetBPEx(Addr = 0x20000000, Type = 0xFFFFFFF2)  returns 0x0000000E (0000ms, 0461ms total)
T35A8 000:738 JLINK_Go() -- CPU_ReadMem(4 bytes @ 0xE0001000) (0005ms, 0466ms total)
T35A8 000:743 JLINK_IsHalted()  returns FALSE (0001ms, 0467ms total)
T35A8 000:748 JLINK_IsHalted()  returns FALSE (0001ms, 0467ms total)
T35A8 000:750 JLINK_IsHalted()  returns FALSE (0001ms, 0467ms total)
T35A8 000:753 JLINK_IsHalted()  returns FALSE (0001ms, 0467ms total)
T35A8 000:755 JLINK_IsHalted()  returns FALSE (0001ms, 0467ms total)
T35A8 000:759 JLINK_IsHalted()  returns FALSE (0002ms, 0468ms total)
T35A8 000:762 JLINK_IsHalted()  returns FALSE (0002ms, 0468ms total)
T35A8 000:765 JLINK_IsHalted()  returns FALSE (0001ms, 0467ms total)
T35A8 000:767 JLINK_IsHalted()  returns FALSE (0001ms, 0467ms total)
T35A8 000:770 JLINK_IsHalted()  returns FALSE (0001ms, 0467ms total)
T35A8 000:772 JLINK_IsHalted()  returns FALSE (0001ms, 0467ms total)
T35A8 000:774 JLINK_IsHalted()  returns FALSE (0001ms, 0467ms total)
T35A8 000:777 JLINK_IsHalted()  returns FALSE (0001ms, 0467ms total)
T35A8 000:779 JLINK_IsHalted()  returns FALSE (0001ms, 0467ms total)
T35A8 000:781 JLINK_IsHalted()  returns FALSE (0002ms, 0468ms total)
T35A8 000:784 JLINK_IsHalted()  returns FALSE (0001ms, 0467ms total)
T35A8 000:786 JLINK_IsHalted()  returns FALSE (0001ms, 0467ms total)
T35A8 000:788 JLINK_IsHalted()  returns FALSE (0001ms, 0467ms total)
T35A8 000:790 JLINK_IsHalted()  returns FALSE (0001ms, 0467ms total)
T35A8 000:794 JLINK_IsHalted()  returns FALSE (0001ms, 0467ms total)
T35A8 000:796 JLINK_IsHalted()  returns FALSE (0001ms, 0467ms total)
T35A8 000:798 JLINK_IsHalted()  returns FALSE (0001ms, 0467ms total)
T35A8 000:800 JLINK_IsHalted()  returns FALSE (0001ms, 0467ms total)
T35A8 000:802 JLINK_IsHalted()  returns FALSE (0001ms, 0467ms total)
T35A8 000:804 JLINK_IsHalted()  returns FALSE (0001ms, 0467ms total)
T35A8 000:806 JLINK_IsHalted()  returns FALSE (0001ms, 0467ms total)
T35A8 000:808 JLINK_IsHalted()  returns FALSE (0001ms, 0467ms total)
T35A8 000:810 JLINK_IsHalted()  returns FALSE (0001ms, 0467ms total)
T35A8 000:812 JLINK_IsHalted() -- CPU_ReadMem(2 bytes @ 0x20000000)  returns TRUE (0007ms, 0473ms total)
T35A8 000:819 JLINK_ReadReg(R15 (PC))  returns 0x20000000 (0000ms, 0466ms total)
T35A8 000:819 JLINK_ClrBPEx(BPHandle = 0x0000000E)  returns 0x00 (0000ms, 0466ms total)
T35A8 000:819 JLINK_ReadReg(R0)  returns 0x00000000 (0000ms, 0466ms total)
T35A8 000:819 JLINK_WriteMem(0x200001F4, 0x0E0C Bytes, ...) - Data: 03 F0 F7 FF 31 68 A0 69 C1 F8 24 05 60 7D 21 7D ... -- CPU_WriteMem(3596 bytes @ 0x200001F4)  returns 0xE0C (0041ms, 0507ms total)
T35A8 000:860 JLINK_WriteMem(0x20001000, 0x01F4 Bytes, ...) - Data: 04 28 01 D2 FF F7 0E BF 00 20 70 47 01 46 10 48 ... -- CPU_WriteMem(500 bytes @ 0x20001000)  returns 0x1F4 (0007ms, 0514ms total)
T35A8 000:867 JLINK_WriteReg(R0, 0x00027000)  returns 0x00 (0000ms, 0514ms total)
T35A8 000:867 JLINK_WriteReg(R1, 0x00001000)  returns 0x00 (0000ms, 0514ms total)
T35A8 000:867 JLINK_WriteReg(R2, 0x200001F4)  returns 0x00 (0000ms, 0514ms total)
T35A8 000:867 JLINK_WriteReg(R3, 0x00000000)  returns 0x00 (0000ms, 0514ms total)
T35A8 000:867 JLINK_WriteReg(R4, 0x00000000)  returns 0x00 (0000ms, 0514ms total)
T35A8 000:867 JLINK_WriteReg(R5, 0x00000000)  returns 0x00 (0000ms, 0514ms total)
T35A8 000:867 JLINK_WriteReg(R6, 0x00000000)  returns 0x00 (0000ms, 0514ms total)
T35A8 000:867 JLINK_WriteReg(R7, 0x00000000)  returns 0x00 (0000ms, 0514ms total)
T35A8 000:867 JLINK_WriteReg(R8, 0x00000000)  returns 0x00 (0000ms, 0514ms total)
T35A8 000:867 JLINK_WriteReg(R9, 0x200001F0)  returns 0x00 (0000ms, 0514ms total)
T35A8 000:867 JLINK_WriteReg(R10, 0x00000000)  returns 0x00 (0000ms, 0514ms total)
T35A8 000:867 JLINK_WriteReg(R11, 0x00000000)  returns 0x00 (0000ms, 0514ms total)
T35A8 000:867 JLINK_WriteReg(R12, 0x00000000)  returns 0x00 (0000ms, 0514ms total)
T35A8 000:867 JLINK_WriteReg(R13 (SP), 0x20002000)  returns 0x00 (0000ms, 0514ms total)
T35A8 000:867 JLINK_WriteReg(R14, 0x20000001)  returns 0x00 (0000ms, 0514ms total)
T35A8 000:867 JLINK_WriteReg(R15 (PC), 0x20000120)  returns 0x00 (0000ms, 0514ms total)
T35A8 000:867 JLINK_WriteReg(XPSR, 0x01000000)  returns 0x00 (0000ms, 0514ms total)
T35A8 000:867 JLINK_WriteReg(MSP, 0x20002000)  returns 0x00 (0000ms, 0514ms total)
T35A8 000:867 JLINK_WriteReg(PSP, 0x20002000)  returns 0x00 (0000ms, 0514ms total)
T35A8 000:867 JLINK_WriteReg(CFBP, 0x00000000)  returns 0x00 (0000ms, 0514ms total)
T35A8 000:867 JLINK_SetBPEx(Addr = 0x20000000, Type = 0xFFFFFFF2)  returns 0x0000000F (0000ms, 0514ms total)
T35A8 000:867 JLINK_Go() -- CPU_ReadMem(4 bytes @ 0xE0001000) (0004ms, 0518ms total)
T35A8 000:871 JLINK_IsHalted()  returns FALSE (0002ms, 0520ms total)
T35A8 000:875 JLINK_IsHalted()  returns FALSE (0001ms, 0519ms total)
T35A8 000:877 JLINK_IsHalted()  returns FALSE (0001ms, 0519ms total)
T35A8 000:879 JLINK_IsHalted()  returns FALSE (0001ms, 0519ms total)
T35A8 000:881 JLINK_IsHalted()  returns FALSE (0001ms, 0519ms total)
T35A8 000:883 JLINK_IsHalted()  returns FALSE (0001ms, 0519ms total)
T35A8 000:885 JLINK_IsHalted()  returns FALSE (0001ms, 0519ms total)
T35A8 000:887 JLINK_IsHalted()  returns FALSE (0001ms, 0520ms total)
T35A8 000:889 JLINK_IsHalted()  returns FALSE (0001ms, 0520ms total)
T35A8 000:891 JLINK_IsHalted()  returns FALSE (0002ms, 0521ms total)
T35A8 000:894 JLINK_IsHalted()  returns FALSE (0001ms, 0520ms total)
T35A8 000:896 JLINK_IsHalted()  returns FALSE (0001ms, 0520ms total)
T35A8 000:898 JLINK_IsHalted()  returns FALSE (0001ms, 0520ms total)
T35A8 000:900 JLINK_IsHalted()  returns FALSE (0001ms, 0520ms total)
T35A8 000:902 JLINK_IsHalted()  returns FALSE (0001ms, 0520ms total)
T35A8 000:904 JLINK_IsHalted()  returns FALSE (0001ms, 0520ms total)
T35A8 000:906 JLINK_IsHalted()  returns FALSE (0002ms, 0521ms total)
T35A8 000:909 JLINK_IsHalted()  returns FALSE (0001ms, 0520ms total)
T35A8 000:911 JLINK_IsHalted()  returns FALSE (0001ms, 0520ms total)
T35A8 000:913 JLINK_IsHalted()  returns FALSE (0001ms, 0520ms total)
T35A8 000:915 JLINK_IsHalted()  returns FALSE (0001ms, 0520ms total)
T35A8 000:917 JLINK_IsHalted()  returns FALSE (0001ms, 0520ms total)
T35A8 000:919 JLINK_IsHalted()  returns FALSE (0001ms, 0520ms total)
T35A8 000:921 JLINK_IsHalted()  returns FALSE (0002ms, 0521ms total)
T35A8 000:924 JLINK_IsHalted()  returns FALSE (0001ms, 0520ms total)
T35A8 000:926 JLINK_IsHalted()  returns FALSE (0001ms, 0520ms total)
T35A8 000:929 JLINK_IsHalted()  returns FALSE (0001ms, 0520ms total)
T35A8 000:931 JLINK_IsHalted()  returns FALSE (0001ms, 0520ms total)
T35A8 000:933 JLINK_IsHalted()  returns FALSE (0001ms, 0520ms total)
T35A8 000:935 JLINK_IsHalted()  returns FALSE (0001ms, 0520ms total)
T35A8 000:937 JLINK_IsHalted()  returns FALSE (0001ms, 0520ms total)
T35A8 000:939 JLINK_IsHalted()  returns FALSE (0001ms, 0520ms total)
T35A8 000:941 JLINK_IsHalted() -- CPU_ReadMem(2 bytes @ 0x20000000)  returns TRUE (0006ms, 0525ms total)
T35A8 000:947 JLINK_ReadReg(R15 (PC))  returns 0x20000000 (0000ms, 0519ms total)
T35A8 000:947 JLINK_ClrBPEx(BPHandle = 0x0000000F)  returns 0x00 (0000ms, 0519ms total)
T35A8 000:947 JLINK_ReadReg(R0)  returns 0x00000000 (0000ms, 0519ms total)
T35A8 000:947 JLINK_WriteMem(0x200001F4, 0x0E0C Bytes, ...) - Data: DF E7 00 20 FF F7 70 FE 00 28 4F F0 00 00 02 D0 ... -- CPU_WriteMem(3596 bytes @ 0x200001F4)  returns 0xE0C (0041ms, 0560ms total)
T35A8 000:988 JLINK_WriteMem(0x20001000, 0x01F4 Bytes, ...) - Data: 01 F0 DB FA 18 B1 A0 B2 39 46 B0 47 6D 1C 64 1C ... -- CPU_WriteMem(500 bytes @ 0x20001000)  returns 0x1F4 (0007ms, 0567ms total)
T35A8 000:995 JLINK_WriteReg(R0, 0x00028000)  returns 0x00 (0000ms, 0567ms total)
T35A8 000:995 JLINK_WriteReg(R1, 0x00001000)  returns 0x00 (0000ms, 0567ms total)
T35A8 000:995 JLINK_WriteReg(R2, 0x200001F4)  returns 0x00 (0000ms, 0567ms total)
T35A8 000:995 JLINK_WriteReg(R3, 0x00000000)  returns 0x00 (0000ms, 0567ms total)
T35A8 000:995 JLINK_WriteReg(R4, 0x00000000)  returns 0x00 (0000ms, 0567ms total)
T35A8 000:995 JLINK_WriteReg(R5, 0x00000000)  returns 0x00 (0000ms, 0567ms total)
T35A8 000:995 JLINK_WriteReg(R6, 0x00000000)  returns 0x00 (0000ms, 0567ms total)
T35A8 000:995 JLINK_WriteReg(R7, 0x00000000)  returns 0x00 (0000ms, 0567ms total)
T35A8 000:995 JLINK_WriteReg(R8, 0x00000000)  returns 0x00 (0000ms, 0567ms total)
T35A8 000:995 JLINK_WriteReg(R9, 0x200001F0)  returns 0x00 (0000ms, 0567ms total)
T35A8 000:995 JLINK_WriteReg(R10, 0x00000000)  returns 0x00 (0000ms, 0567ms total)
T35A8 000:995 JLINK_WriteReg(R11, 0x00000000)  returns 0x00 (0000ms, 0567ms total)
T35A8 000:995 JLINK_WriteReg(R12, 0x00000000)  returns 0x00 (0000ms, 0567ms total)
T35A8 000:995 JLINK_WriteReg(R13 (SP), 0x20002000)  returns 0x00 (0000ms, 0567ms total)
T35A8 000:995 JLINK_WriteReg(R14, 0x20000001)  returns 0x00 (0000ms, 0567ms total)
T35A8 000:995 JLINK_WriteReg(R15 (PC), 0x20000120)  returns 0x00 (0000ms, 0567ms total)
T35A8 000:995 JLINK_WriteReg(XPSR, 0x01000000)  returns 0x00 (0000ms, 0567ms total)
T35A8 000:995 JLINK_WriteReg(MSP, 0x20002000)  returns 0x00 (0000ms, 0567ms total)
T35A8 000:995 JLINK_WriteReg(PSP, 0x20002000)  returns 0x00 (0000ms, 0567ms total)
T35A8 000:995 JLINK_WriteReg(CFBP, 0x00000000)  returns 0x00 (0000ms, 0567ms total)
T35A8 000:995 JLINK_SetBPEx(Addr = 0x20000000, Type = 0xFFFFFFF2)  returns 0x00000010 (0000ms, 0567ms total)
T35A8 000:995 JLINK_Go() -- CPU_ReadMem(4 bytes @ 0xE0001000) (0005ms, 0572ms total)
T35A8 001:000 JLINK_IsHalted()  returns FALSE (0001ms, 0573ms total)
T35A8 001:007 JLINK_IsHalted()  returns FALSE (0001ms, 0573ms total)
T35A8 001:009 JLINK_IsHalted()  returns FALSE (0001ms, 0573ms total)
T35A8 001:011 JLINK_IsHalted()  returns FALSE (0001ms, 0573ms total)
T35A8 001:013 JLINK_IsHalted()  returns FALSE (0001ms, 0573ms total)
T35A8 001:015 JLINK_IsHalted()  returns FALSE (0001ms, 0574ms total)
